"# Channel 1"
"# Trace 1"
Frequency, Formatted Data, Formatted Data
+2.83000000000E+008, +3.78300581190E-001, -1.68032546689E+002
+2.83018750000E+008, +3.78418005194E-001, -1.67968338501E+002
+2.83037500000E+008, +3.78682701607E-001, -1.67923286082E+002
+2.83056250000E+008, +3.78864144842E-001, -1.67852457432E+002
+2.83075000000E+008, +3.78921662033E-001, -1.67776480759E+002
+2.83093750000E+008, +3.79138582065E-001, -1.67723745294E+002
+2.83112500000E+008, +3.79213033632E-001, -1.67622556414E+002
+2.83131250000E+008, +3.79206070945E-001, -1.67561608946E+002
+2.83150000000E+008, +3.79260153840E-001, -1.67481312914E+002
+2.83168750000E+008, +3.79246926025E-001, -1.67382923315E+002
+2.83187500000E+008, +3.79215925958E-001, -1.67276266419E+002
+2.83206250000E+008, +3.79238751987E-001, -1.67186925364E+002
+2.83225000000E+008, +3.79039380843E-001, -1.67085097020E+002
+2.83243750000E+008, +3.79013761511E-001, -1.66968493284E+002
+2.83262500000E+008, +3.79012980282E-001, -1.66843353645E+002
+2.83281250000E+008, +3.78872425533E-001, -1.66711637574E+002
+2.83300000000E+008, +3.78683803224E-001, -1.66597976005E+002
+2.83318750000E+008, +3.78520581761E-001, -1.66448107003E+002
+2.83337500000E+008, +3.78406660255E-001, -1.66329195337E+002
+2.83356250000E+008, +3.78098188793E-001, -1.66178080068E+002
+2.83375000000E+008, +3.77968678272E-001, -1.66012981843E+002
+2.83393750000E+008, +3.77799631800E-001, -1.65868723916E+002
+2.83412500000E+008, +3.77526222808E-001, -1.65707825893E+002
+2.83431250000E+008, +3.77353877240E-001, -1.65529247106E+002
+2.83450000000E+008, +3.77170930315E-001, -1.65365068094E+002
+2.83468750000E+008, +3.76894387222E-001, -1.65199957077E+002
+2.83487500000E+008, +3.76573228865E-001, -1.65006017403E+002
+2.83506250000E+008, +3.76400231483E-001, -1.64819963652E+002
+2.83525000000E+008, +3.76065162878E-001, -1.64622578563E+002
+2.83543750000E+008, +3.75757450636E-001, -1.64418412469E+002
+2.83562500000E+008, +3.75546421007E-001, -1.64199454080E+002
+2.83581250000E+008, +3.75281053389E-001, -1.63992690635E+002
+2.83600000000E+008, +3.75042840015E-001, -1.63783484644E+002
+2.83618750000E+008, +3.74721017334E-001, -1.63562540589E+002
+2.83637500000E+008, +3.74437233978E-001, -1.63316379936E+002
+2.83656250000E+008, +3.74154578387E-001, -1.63083118452E+002
+2.83675000000E+008, +3.73959071012E-001, -1.62868360693E+002
+2.83693750000E+008, +3.73711893690E-001, -1.62605586283E+002
+2.83712500000E+008, +3.73461920572E-001, -1.62350441491E+002
+2.83731250000E+008, +3.73278296370E-001, -1.62100584581E+002
+2.83750000000E+008, +3.73001253379E-001, -1.61826842262E+002
+2.83768750000E+008, +3.72783973773E-001, -1.61578367183E+002
+2.83787500000E+008, +3.72628058198E-001, -1.61293198479E+002
+2.83806250000E+008, +3.72396370592E-001, -1.61017592582E+002
+2.83825000000E+008, +3.72157087141E-001, -1.60742764121E+002
+2.83843750000E+008, +3.71992162446E-001, -1.60457844413E+002
+2.83862500000E+008, +3.71973926232E-001, -1.60154911908E+002
+2.83881250000E+008, +3.71864031831E-001, -1.59854447950E+002
+2.83900000000E+008, +3.71695851084E-001, -1.59559881667E+002
+2.83918750000E+008, +3.71497929714E-001, -1.59248629829E+002
+2.83937500000E+008, +3.71471419234E-001, -1.58939693753E+002
+2.83956250000E+008, +3.71371229578E-001, -1.58633517760E+002
+2.83975000000E+008, +3.71431546685E-001, -1.58310755311E+002
+2.83993750000E+008, +3.71426974397E-001, -1.57986846019E+002
+2.84012500000E+008, +3.71393477610E-001, -1.57660382684E+002
+2.84031250000E+008, +3.71398146798E-001, -1.57337375189E+002
+2.84050000000E+008, +3.71445966724E-001, -1.57006951110E+002
+2.84068750000E+008, +3.71604254037E-001, -1.56664762687E+002
+2.84087500000E+008, +3.71659069912E-001, -1.56322417030E+002
+2.84106250000E+008, +3.71671429615E-001, -1.55987494152E+002
+2.84125000000E+008, +3.71941682643E-001, -1.55644761043E+002
+2.84143750000E+008, +3.72160712244E-001, -1.55296527155E+002
+2.84162500000E+008, +3.72445688778E-001, -1.54938207829E+002
+2.84181250000E+008, +3.72702738708E-001, -1.54601930212E+002
+2.84200000000E+008, +3.73060746511E-001, -1.54225737672E+002
+2.84218750000E+008, +3.73241428451E-001, -1.53868104807E+002
+2.84237500000E+008, +3.73606372330E-001, -1.53526036899E+002
+2.84256250000E+008, +3.73937956825E-001, -1.53166167909E+002
+2.84275000000E+008, +3.74359156500E-001, -1.52788449857E+002
+2.84293750000E+008, +3.74901513120E-001, -1.52413345772E+002
+2.84312500000E+008, +3.75342564562E-001, -1.52056664481E+002
+2.84331250000E+008, +3.75817672677E-001, -1.51692868434E+002
+2.84350000000E+008, +3.76389820773E-001, -1.51332938754E+002
+2.84368750000E+008, +3.76923016746E-001, -1.50961037320E+002
+2.84387500000E+008, +3.77472884796E-001, -1.50599924028E+002
+2.84406250000E+008, +3.78195281092E-001, -1.50238243618E+002
+2.84425000000E+008, +3.78870747322E-001, -1.49864631610E+002
+2.84443750000E+008, +3.79492338030E-001, -1.49505436565E+002
+2.84462500000E+008, +3.80299586677E-001, -1.49130274685E+002
+2.84481250000E+008, +3.81108922299E-001, -1.48757827475E+002
+2.84500000000E+008, +3.81830108656E-001, -1.48394408343E+002
+2.84518750000E+008, +3.82646882520E-001, -1.48041653951E+002
+2.84537500000E+008, +3.83528478707E-001, -1.47679831606E+002
+2.84556250000E+008, +3.84379804232E-001, -1.47318901078E+002
+2.84575000000E+008, +3.85239686044E-001, -1.46959058276E+002
+2.84593750000E+008, +3.86240530681E-001, -1.46594753804E+002
+2.84612500000E+008, +3.87239997035E-001, -1.46241368370E+002
+2.84631250000E+008, +3.88247411400E-001, -1.45891279442E+002
+2.84650000000E+008, +3.89282349416E-001, -1.45536794488E+002
+2.84668750000E+008, +3.90336347880E-001, -1.45194902827E+002
+2.84687500000E+008, +3.91371846957E-001, -1.44841021611E+002
+2.84706250000E+008, +3.92529601869E-001, -1.44510292347E+002
+2.84725000000E+008, +3.93625984663E-001, -1.44165756750E+002
+2.84743750000E+008, +3.94883214569E-001, -1.43826035783E+002
+2.84762500000E+008, +3.96100518872E-001, -1.43486593429E+002
+2.84781250000E+008, +3.97352330610E-001, -1.43150291882E+002
+2.84800000000E+008, +3.98615186301E-001, -1.42817379551E+002
+2.84818750000E+008, +3.99824394163E-001, -1.42497933710E+002
+2.84837500000E+008, +4.01147815339E-001, -1.42184176717E+002
+2.84856250000E+008, +4.02367680259E-001, -1.41861735065E+002
+2.84875000000E+008, +4.03657894196E-001, -1.41550684657E+002
+2.84893750000E+008, +4.05124271435E-001, -1.41228166471E+002
+2.84912500000E+008, +4.06458957202E-001, -1.40918019751E+002
+2.84931250000E+008, +4.07806653215E-001, -1.40615103658E+002
+2.84950000000E+008, +4.09294968672E-001, -1.40301246562E+002
+2.84968750000E+008, +4.10683742331E-001, -1.40010258799E+002
+2.84987500000E+008, +4.12120370679E-001, -1.39723130710E+002
+2.85006250000E+008, +4.13599518309E-001, -1.39434711228E+002
+2.85025000000E+008, +4.15042292443E-001, -1.39143750410E+002
+2.85043750000E+008, +4.16453055465E-001, -1.38864094507E+002
+2.85062500000E+008, +4.17975204101E-001, -1.38580528620E+002
+2.85081250000E+008, +4.19592233937E-001, -1.38306899783E+002
+2.85100000000E+008, +4.21063027204E-001, -1.38022079884E+002
+2.85118750000E+008, +4.22596767965E-001, -1.37756419348E+002
+2.85137500000E+008, +4.24138295071E-001, -1.37499800295E+002
+2.85156250000E+008, +4.25683204594E-001, -1.37244490205E+002
+2.85175000000E+008, +4.27173946426E-001, -1.37003175707E+002
+2.85193750000E+008, +4.28783129026E-001, -1.36743859078E+002
+2.85212500000E+008, +4.30320377472E-001, -1.36487898556E+002
+2.85231250000E+008, +4.31821092366E-001, -1.36237938523E+002
+2.85250000000E+008, +4.33380995835E-001, -1.36024211102E+002
+2.85268750000E+008, +4.34922205614E-001, -1.35786075799E+002
+2.85287500000E+008, +4.36510410094E-001, -1.35548599316E+002
+2.85306250000E+008, +4.38108684968E-001, -1.35336337766E+002
+2.85325000000E+008, +4.39463782998E-001, -1.35107524426E+002
+2.85343750000E+008, +4.41065859423E-001, -1.34887387892E+002
+2.85362500000E+008, +4.42635381512E-001, -1.34664872120E+002
+2.85381250000E+008, +4.44221348809E-001, -1.34456803132E+002
+2.85400000000E+008, +4.45649403911E-001, -1.34242922126E+002
+2.85418750000E+008, +4.47188070946E-001, -1.34050592174E+002
+2.85437500000E+008, +4.48691199445E-001, -1.33855772016E+002
+2.85456250000E+008, +4.50214606310E-001, -1.33661857965E+002
+2.85475000000E+008, +4.51734730301E-001, -1.33476917433E+002
+2.85493750000E+008, +4.53196340479E-001, -1.33286472724E+002
+2.85512500000E+008, +4.54609719546E-001, -1.33093954629E+002
+2.85531250000E+008, +4.56125717219E-001, -1.32908189804E+002
+2.85550000000E+008, +4.57529418798E-001, -1.32723553634E+002
+2.85568750000E+008, +4.58931103920E-001, -1.32567878165E+002
+2.85587500000E+008, +4.60269409713E-001, -1.32392257278E+002
+2.85606250000E+008, +4.61716622851E-001, -1.32231449249E+002
+2.85625000000E+008, +4.62990625652E-001, -1.32077610036E+002
+2.85643750000E+008, +4.64379268899E-001, -1.31902022948E+002
+2.85662500000E+008, +4.65732156568E-001, -1.31745180312E+002
+2.85681250000E+008, +4.67007978891E-001, -1.31584462110E+002
+2.85700000000E+008, +4.68291847301E-001, -1.31441094707E+002
+2.85718750000E+008, +4.69491106760E-001, -1.31294147977E+002
+2.85737500000E+008, +4.70754598724E-001, -1.31169647085E+002
+2.85756250000E+008, +4.71924252866E-001, -1.31025635396E+002
+2.85775000000E+008, +4.73239944964E-001, -1.30889479715E+002
+2.85793750000E+008, +4.74238466380E-001, -1.30735160080E+002
+2.85812500000E+008, +4.75362275865E-001, -1.30611852848E+002
+2.85831250000E+008, +4.76412304800E-001, -1.30480235270E+002
+2.85850000000E+008, +4.77558526169E-001, -1.30358301584E+002
+2.85868750000E+008, +4.78594003392E-001, -1.30251348507E+002
+2.85887500000E+008, +4.79464274109E-001, -1.30115943302E+002
+2.85906250000E+008, +4.80536836709E-001, -1.30021864268E+002
+2.85925000000E+008, +4.81448241744E-001, -1.29903570584E+002
+2.85943750000E+008, +4.82461551795E-001, -1.29780452395E+002
+2.85962500000E+008, +4.83269795981E-001, -1.29684064814E+002
+2.85981250000E+008, +4.84121876538E-001, -1.29569926795E+002
+2.86000000000E+008, +4.84964523987E-001, -1.29459268051E+002
+2.86018750000E+008, +4.85575876454E-001, -1.29379986491E+002
+2.86037500000E+008, +4.86394096380E-001, -1.29285098484E+002
+2.86056250000E+008, +4.87101530630E-001, -1.29205597001E+002
+2.86075000000E+008, +4.87701966108E-001, -1.29102957701E+002
+2.86093750000E+008, +4.88333411301E-001, -1.29013278900E+002
+2.86112500000E+008, +4.89013999502E-001, -1.28922024538E+002
+2.86131250000E+008, +4.89438776467E-001, -1.28836468758E+002
+2.86150000000E+008, +4.89966426196E-001, -1.28772464711E+002
+2.86168750000E+008, +4.90300974486E-001, -1.28698616451E+002
+2.86187500000E+008, +4.90742127171E-001, -1.28636971416E+002
+2.86206250000E+008, +4.91148241256E-001, -1.28573692117E+002
+2.86225000000E+008, +4.91458724608E-001, -1.28502159946E+002
+2.86243750000E+008, +4.91742155090E-001, -1.28443146510E+002
+2.86262500000E+008, +4.92016101341E-001, -1.28375973585E+002
+2.86281250000E+008, +4.92165599891E-001, -1.28321158156E+002
+2.86300000000E+008, +4.92239279262E-001, -1.28258232580E+002
+2.86318750000E+008, +4.92243746547E-001, -1.28215006983E+002
+2.86337500000E+008, +4.92438935659E-001, -1.28184843416E+002
+2.86356250000E+008, +4.92457578033E-001, -1.28148446443E+002
+2.86375000000E+008, +4.92423099342E-001, -1.28098893779E+002
+2.86393750000E+008, +4.92170865475E-001, -1.28065890502E+002
+2.86412500000E+008, +4.92072821060E-001, -1.28024425484E+002
+2.86431250000E+008, +4.91897100303E-001, -1.27988133403E+002
+2.86450000000E+008, +4.91657063617E-001, -1.27957026078E+002
+2.86468750000E+008, +4.91297980991E-001, -1.27952448046E+002
+2.86487500000E+008, +4.90891385443E-001, -1.27947714902E+002
+2.86506250000E+008, +4.90560209654E-001, -1.27933775309E+002
+2.86525000000E+008, +4.90155118713E-001, -1.27931111889E+002
+2.86543750000E+008, +4.89626535903E-001, -1.27904036161E+002
+2.86562500000E+008, +4.89003665245E-001, -1.27900457521E+002
+2.86581250000E+008, +4.88384090485E-001, -1.27893564116E+002
+2.86600000000E+008, +4.87643228311E-001, -1.27904198844E+002
+2.86618750000E+008, +4.87023357537E-001, -1.27914576646E+002
+2.86637500000E+008, +4.86202361300E-001, -1.27929867235E+002
+2.86656250000E+008, +4.85364502726E-001, -1.27973407163E+002
+2.86675000000E+008, +4.84451311030E-001, -1.27996565899E+002
+2.86693750000E+008, +4.83465067983E-001, -1.28015187033E+002
+2.86712500000E+008, +4.82441179956E-001, -1.28033646118E+002
+2.86731250000E+008, +4.81446816433E-001, -1.28075601572E+002
+2.86750000000E+008, +4.80327340545E-001, -1.28133875234E+002
+2.86768750000E+008, +4.79227658697E-001, -1.28180187611E+002
+2.86787500000E+008, +4.78083307874E-001, -1.28236411300E+002
+2.86806250000E+008, +4.76797696729E-001, -1.28320797298E+002
+2.86825000000E+008, +4.75425883464E-001, -1.28376971148E+002
+2.86843750000E+008, +4.73956475166E-001, -1.28453047042E+002
+2.86862500000E+008, +4.72525107698E-001, -1.28527057560E+002
+2.86881250000E+008, +4.71157813467E-001, -1.28624087016E+002
+2.86900000000E+008, +4.69506712045E-001, -1.28721358808E+002
+2.86918750000E+008, +4.67966801872E-001, -1.28819445039E+002
+2.86937500000E+008, +4.66353243544E-001, -1.28947400532E+002
+2.86956250000E+008, +4.64683920072E-001, -1.29071909765E+002
+2.86975000000E+008, +4.62976835738E-001, -1.29202630888E+002
+2.86993750000E+008, +4.61115027456E-001, -1.29327924851E+002
+2.87012500000E+008, +4.59262776170E-001, -1.29466916127E+002
+2.87031250000E+008, +4.57437991370E-001, -1.29610848282E+002
+2.87050000000E+008, +4.55461346891E-001, -1.29765643324E+002
+2.87068750000E+008, +4.53569833139E-001, -1.29947673233E+002
+2.87087500000E+008, +4.51522408648E-001, -1.30115774279E+002
+2.87106250000E+008, +4.49559937614E-001, -1.30326109952E+002
+2.87125000000E+008, +4.47429082192E-001, -1.30524794730E+002
+2.87143750000E+008, +4.45303395532E-001, -1.30727202848E+002
+2.87162500000E+008, +4.43135903463E-001, -1.30942767053E+002
+2.87181250000E+008, +4.40934655743E-001, -1.31160432098E+002
+2.87200000000E+008, +4.38574492454E-001, -1.31410628296E+002
+2.87218750000E+008, +4.36416442775E-001, -1.31668163542E+002
+2.87237500000E+008, +4.34211790781E-001, -1.31958509758E+002
+2.87256250000E+008, +4.31929813340E-001, -1.32240894740E+002
+2.87275000000E+008, +4.29505498992E-001, -1.32513061429E+002
+2.87293750000E+008, +4.27007246900E-001, -1.32825147813E+002
+2.87312500000E+008, +4.24804910948E-001, -1.33142477396E+002
+2.87331250000E+008, +4.22299133238E-001, -1.33475281042E+002
+2.87350000000E+008, +4.19857338773E-001, -1.33832791067E+002
+2.87368750000E+008, +4.17527503947E-001, -1.34197504720E+002
+2.87387500000E+008, +4.15133227382E-001, -1.34576341184E+002
+2.87406250000E+008, +4.12843092261E-001, -1.34960349110E+002
+2.87425000000E+008, +4.10455570464E-001, -1.35373099593E+002
+2.87443750000E+008, +4.07943999977E-001, -1.35794525032E+002
+2.87462500000E+008, +4.05483753751E-001, -1.36229150792E+002
+2.87481250000E+008, +4.03020142308E-001, -1.36691685256E+002
+2.87500000000E+008, +4.00704338073E-001, -1.37186491472E+002
+2.87518750000E+008, +3.98244467234E-001, -1.37681758237E+002
+2.87537500000E+008, +3.95992285639E-001, -1.38179493683E+002
+2.87556250000E+008, +3.93701231567E-001, -1.38724012048E+002
+2.87575000000E+008, +3.91495143535E-001, -1.39257613209E+002
+2.87593750000E+008, +3.89093920442E-001, -1.39830539593E+002
+2.87612500000E+008, +3.86873778187E-001, -1.40417652645E+002
+2.87631250000E+008, +3.84622740888E-001, -1.41014112502E+002
+2.87650000000E+008, +3.82569547702E-001, -1.41618676444E+002
+2.87668750000E+008, +3.80605206686E-001, -1.42270241004E+002
+2.87687500000E+008, +3.78542599480E-001, -1.42924156035E+002
+2.87706250000E+008, +3.76667404737E-001, -1.43614315737E+002
+2.87725000000E+008, +3.74887503015E-001, -1.44313215945E+002
+2.87743750000E+008, +3.73093642155E-001, -1.45038134164E+002
+2.87762500000E+008, +3.71372114104E-001, -1.45748113621E+002
+2.87781250000E+008, +3.69665008746E-001, -1.46479152213E+002
+2.87800000000E+008, +3.68277187959E-001, -1.47270230994E+002
+2.87818750000E+008, +3.66779099113E-001, -1.48049398288E+002
+2.87837500000E+008, +3.65419331780E-001, -1.48858769141E+002
+2.87856250000E+008, +3.64210132533E-001, -1.49666501963E+002
+2.87875000000E+008, +3.63256130222E-001, -1.50504244021E+002
+2.87893750000E+008, +3.62207188260E-001, -1.51352865597E+002
+2.87912500000E+008, +3.61246149919E-001, -1.52215402415E+002
+2.87931250000E+008, +3.60518890835E-001, -1.53084850085E+002
+2.87950000000E+008, +3.59818626825E-001, -1.53969997838E+002
+2.87968750000E+008, +3.59395775753E-001, -1.54873124874E+002
+2.87987500000E+008, +3.58989039961E-001, -1.55785823147E+002
+2.88006250000E+008, +3.58938055643E-001, -1.56695078495E+002
+2.88025000000E+008, +3.58802342322E-001, -1.57593332851E+002
+2.88043750000E+008, +3.58745410521E-001, -1.58540749157E+002
+2.88062500000E+008, +3.58935539534E-001, -1.59492334885E+002
+2.88081250000E+008, +3.59193193980E-001, -1.60408250827E+002
+2.88100000000E+008, +3.59874580296E-001, -1.61332498480E+002
+2.88118750000E+008, +3.60465343547E-001, -1.62311598897E+002
+2.88137500000E+008, +3.61253296998E-001, -1.63247112250E+002
+2.88156250000E+008, +3.62374570147E-001, -1.64189354325E+002
+2.88175000000E+008, +3.63477297155E-001, -1.65128770945E+002
+2.88193750000E+008, +3.64525285896E-001, -1.66069795822E+002
+2.88212500000E+008, +3.65976398844E-001, -1.67019998755E+002
+2.88231250000E+008, +3.67507781860E-001, -1.67942145447E+002
+2.88250000000E+008, +3.69268364710E-001, -1.68857637530E+002
+2.88268750000E+008, +3.71000646073E-001, -1.69758504959E+002
+2.88287500000E+008, +3.73136680519E-001, -1.70669724142E+002
+2.88306250000E+008, +3.75231393145E-001, -1.71532220616E+002
+2.88325000000E+008, +3.77538872920E-001, -1.72436565996E+002
+2.88343750000E+008, +3.79936135079E-001, -1.73306883165E+002
+2.88362500000E+008, +3.82339164406E-001, -1.74176469682E+002
+2.88381250000E+008, +3.85016117945E-001, -1.75007991210E+002
+2.88400000000E+008, +3.87856385050E-001, -1.75847463313E+002
+2.88418750000E+008, +3.90786878005E-001, -1.76661070527E+002
+2.88437500000E+008, +3.93781396506E-001, -1.77441290202E+002
+2.88456250000E+008, +3.97107660130E-001, -1.78229412111E+002
+2.88475000000E+008, +4.00244582043E-001, -1.78985244754E+002
+2.88493750000E+008, +4.03588673691E-001, -1.79750431213E+002
+2.88512500000E+008, +4.07009706951E-001, +1.79503461067E+002
+2.88531250000E+008, +4.10525257136E-001, +1.78773573945E+002
+2.88550000000E+008, +4.14267294593E-001, +1.78076122313E+002
+2.88568750000E+008, +4.17923113368E-001, +1.77385897950E+002
+2.88587500000E+008, +4.21728157748E-001, +1.76731471540E+002
+2.88606250000E+008, +4.25863237283E-001, +1.76092748276E+002
+2.88625000000E+008, +4.29639038295E-001, +1.75438788793E+002
+2.88643750000E+008, +4.33579060976E-001, +1.74826351997E+002
+2.88662500000E+008, +4.37740390174E-001, +1.74211933679E+002
+2.88681250000E+008, +4.41737102391E-001, +1.73637987281E+002
+2.88700000000E+008, +4.46128573173E-001, +1.73059941874E+002
+2.88718750000E+008, +4.50347769992E-001, +1.72504520590E+002
+2.88737500000E+008, +4.54684931862E-001, +1.71963296345E+002
+2.88756250000E+008, +4.59166404684E-001, +1.71449848330E+002
+2.88775000000E+008, +4.63561623781E-001, +1.70932232412E+002
+2.88793750000E+008, +4.67741794292E-001, +1.70456055132E+002
+2.88812500000E+008, +4.72309236897E-001, +1.69950679390E+002
+2.88831250000E+008, +4.76834408553E-001, +1.69490699666E+002
+2.88850000000E+008, +4.81421339594E-001, +1.69049133706E+002
+2.88868750000E+008, +4.85775504724E-001, +1.68601120975E+002
+2.88887500000E+008, +4.90349469383E-001, +1.68173246960E+002
+2.88906250000E+008, +4.95022988496E-001, +1.67772899484E+002
+2.88925000000E+008, +4.99517095648E-001, +1.67364232437E+002
+2.88943750000E+008, +5.04030718727E-001, +1.66972505650E+002
+2.88962500000E+008, +5.08606165753E-001, +1.66585096430E+002
+2.88981250000E+008, +5.13170793795E-001, +1.66218100186E+002
+2.89000000000E+008, +5.17675999638E-001, +1.65865137974E+002
