"# Channel 1"
"# Trace 1"
Frequency, Formatted Data, Formatted Data
+2.83000000000E+008, +3.78346585707E-001, -1.67990244607E+002
+2.83018750000E+008, +3.78603088428E-001, -1.67919331673E+002
+2.83037500000E+008, +3.78745982595E-001, -1.67890962842E+002
+2.83056250000E+008, +3.78913265767E-001, -1.67813729243E+002
+2.83075000000E+008, +3.79165555568E-001, -1.67743529653E+002
+2.83093750000E+008, +3.79202763958E-001, -1.67672800967E+002
+2.83112500000E+008, +3.79220074073E-001, -1.67599527540E+002
+2.83131250000E+008, +3.79387314185E-001, -1.67531391121E+002
+2.83150000000E+008, +3.79416861191E-001, -1.67441003118E+002
+2.83168750000E+008, +3.79411790284E-001, -1.67350693086E+002
+2.83187500000E+008, +3.79352363025E-001, -1.67260736415E+002
+2.83206250000E+008, +3.79263506257E-001, -1.67161897476E+002
+2.83225000000E+008, +3.79253956355E-001, -1.67052582157E+002
+2.83243750000E+008, +3.79256921870E-001, -1.66937639595E+002
+2.83262500000E+008, +3.79041449514E-001, -1.66814262734E+002
+2.83281250000E+008, +3.79038816378E-001, -1.66683448334E+002
+2.83300000000E+008, +3.78904592122E-001, -1.66558623243E+002
+2.83318750000E+008, +3.78717664932E-001, -1.66432587898E+002
+2.83337500000E+008, +3.78503447729E-001, -1.66290714558E+002
+2.83356250000E+008, +3.78286304562E-001, -1.66144090704E+002
+2.83375000000E+008, +3.78102482056E-001, -1.65987481553E+002
+2.83393750000E+008, +3.77964565414E-001, -1.65829396765E+002
+2.83412500000E+008, +3.77740475799E-001, -1.65668439645E+002
+2.83431250000E+008, +3.77594048789E-001, -1.65499882715E+002
+2.83450000000E+008, +3.77320883722E-001, -1.65341448000E+002
+2.83468750000E+008, +3.77094242683E-001, -1.65174212984E+002
+2.83487500000E+008, +3.76722955709E-001, -1.64979363565E+002
+2.83506250000E+008, +3.76473564072E-001, -1.64789559207E+002
+2.83525000000E+008, +3.76193345064E-001, -1.64594215114E+002
+2.83543750000E+008, +3.76028573253E-001, -1.64387220457E+002
+2.83562500000E+008, +3.75720978517E-001, -1.64175422120E+002
+2.83581250000E+008, +3.75464433399E-001, -1.63965449557E+002
+2.83600000000E+008, +3.75137832092E-001, -1.63764044723E+002
+2.83618750000E+008, +3.74917505941E-001, -1.63519373955E+002
+2.83637500000E+008, +3.74643385562E-001, -1.63294405456E+002
+2.83656250000E+008, +3.74356436211E-001, -1.63068586768E+002
+2.83675000000E+008, +3.74118174955E-001, -1.62819375968E+002
+2.83693750000E+008, +3.73946171425E-001, -1.62567181818E+002
+2.83712500000E+008, +3.73674720280E-001, -1.62331958410E+002
+2.83731250000E+008, +3.73418966727E-001, -1.62060276540E+002
+2.83750000000E+008, +3.73212561350E-001, -1.61820002116E+002
+2.83768750000E+008, +3.73027116929E-001, -1.61543528611E+002
+2.83787500000E+008, +3.72758091673E-001, -1.61273327074E+002
+2.83806250000E+008, +3.72647170511E-001, -1.60994925395E+002
+2.83825000000E+008, +3.72454032913E-001, -1.60698567011E+002
+2.83843750000E+008, +3.72221434597E-001, -1.60418596427E+002
+2.83862500000E+008, +3.72144357050E-001, -1.60125792688E+002
+2.83881250000E+008, +3.72006708347E-001, -1.59845525699E+002
+2.83900000000E+008, +3.71929013566E-001, -1.59535943377E+002
+2.83918750000E+008, +3.71750760701E-001, -1.59234940488E+002
+2.83937500000E+008, +3.71743194165E-001, -1.58922621180E+002
+2.83956250000E+008, +3.71622888515E-001, -1.58597021287E+002
+2.83975000000E+008, +3.71578441842E-001, -1.58282153130E+002
+2.83993750000E+008, +3.71564604431E-001, -1.57965311232E+002
+2.84012500000E+008, +3.71637543819E-001, -1.57640948076E+002
+2.84031250000E+008, +3.71632027347E-001, -1.57322945449E+002
+2.84050000000E+008, +3.71640888731E-001, -1.56986505914E+002
+2.84068750000E+008, +3.71776825961E-001, -1.56647991875E+002
+2.84087500000E+008, +3.71916987743E-001, -1.56312864670E+002
+2.84106250000E+008, +3.72098106208E-001, -1.55973449328E+002
+2.84125000000E+008, +3.72174221311E-001, -1.55613974930E+002
+2.84143750000E+008, +3.72432510230E-001, -1.55275421735E+002
+2.84162500000E+008, +3.72700750071E-001, -1.54923596643E+002
+2.84181250000E+008, +3.72923767484E-001, -1.54570503788E+002
+2.84200000000E+008, +3.73156572728E-001, -1.54212200579E+002
+2.84218750000E+008, +3.73448818400E-001, -1.53846018158E+002
+2.84237500000E+008, +3.73787861804E-001, -1.53492529854E+002
+2.84256250000E+008, +3.74179766101E-001, -1.53121545796E+002
+2.84275000000E+008, +3.74660407472E-001, -1.52761632645E+002
+2.84293750000E+008, +3.75125114001E-001, -1.52402630845E+002
+2.84312500000E+008, +3.75552615466E-001, -1.52028797690E+002
+2.84331250000E+008, +3.76085690212E-001, -1.51673465014E+002
+2.84350000000E+008, +3.76589079407E-001, -1.51293811186E+002
+2.84368750000E+008, +3.77159664560E-001, -1.50924637437E+002
+2.84387500000E+008, +3.77735266860E-001, -1.50574320614E+002
+2.84406250000E+008, +3.78319380794E-001, -1.50203500822E+002
+2.84425000000E+008, +3.79072921117E-001, -1.49847016069E+002
+2.84443750000E+008, +3.79726571473E-001, -1.49474252092E+002
+2.84462500000E+008, +3.80504301961E-001, -1.49098884951E+002
+2.84481250000E+008, +3.81198732617E-001, -1.48729911051E+002
+2.84500000000E+008, +3.82012810327E-001, -1.48381397164E+002
+2.84518750000E+008, +3.82834610184E-001, -1.48023566256E+002
+2.84537500000E+008, +3.83693661077E-001, -1.47643078620E+002
+2.84556250000E+008, +3.84509660099E-001, -1.47302500810E+002
+2.84575000000E+008, +3.85425508429E-001, -1.46939149710E+002
+2.84593750000E+008, +3.86436922235E-001, -1.46575791561E+002
+2.84612500000E+008, +3.87525073041E-001, -1.46224826805E+002
+2.84631250000E+008, +3.88382272617E-001, -1.45870026850E+002
+2.84650000000E+008, +3.89458380504E-001, -1.45513345065E+002
+2.84668750000E+008, +3.90468268121E-001, -1.45166688041E+002
+2.84687500000E+008, +3.91636046027E-001, -1.44826094638E+002
+2.84706250000E+008, +3.92673182412E-001, -1.44469761648E+002
+2.84725000000E+008, +3.93906868082E-001, -1.44145776947E+002
+2.84743750000E+008, +3.95131398719E-001, -1.43802583338E+002
+2.84762500000E+008, +3.96221579635E-001, -1.43450059722E+002
+2.84781250000E+008, +3.97428194101E-001, -1.43130234886E+002
+2.84800000000E+008, +3.98841261385E-001, -1.42783261797E+002
+2.84818750000E+008, +4.00047459784E-001, -1.42465485991E+002
+2.84837500000E+008, +4.01249157632E-001, -1.42138970014E+002
+2.84856250000E+008, +4.02677635384E-001, -1.41819323018E+002
+2.84875000000E+008, +4.04016040179E-001, -1.41514203141E+002
+2.84893750000E+008, +4.05263637673E-001, -1.41191813478E+002
+2.84912500000E+008, +4.06613266927E-001, -1.40876265255E+002
+2.84931250000E+008, +4.08100220875E-001, -1.40589659132E+002
+2.84950000000E+008, +4.09444186449E-001, -1.40277584215E+002
+2.84968750000E+008, +4.10914602815E-001, -1.39980614913E+002
+2.84987500000E+008, +4.12336955123E-001, -1.39691218042E+002
+2.85006250000E+008, +4.13677670853E-001, -1.39410480964E+002
+2.85025000000E+008, +4.15237278030E-001, -1.39120817641E+002
+2.85043750000E+008, +4.16688782634E-001, -1.38825708969E+002
+2.85062500000E+008, +4.18154116551E-001, -1.38540901445E+002
+2.85081250000E+008, +4.19776635668E-001, -1.38264352059E+002
+2.85100000000E+008, +4.21274629457E-001, -1.37999159584E+002
+2.85118750000E+008, +4.22807515378E-001, -1.37731369139E+002
+2.85137500000E+008, +4.24304614427E-001, -1.37463158026E+002
+2.85156250000E+008, +4.25881437885E-001, -1.37203214917E+002
+2.85175000000E+008, +4.27409300502E-001, -1.36950701607E+002
+2.85193750000E+008, +4.29055122003E-001, -1.36697041145E+002
+2.85212500000E+008, +4.30507396715E-001, -1.36460471525E+002
+2.85231250000E+008, +4.32103412693E-001, -1.36209809522E+002
+2.85250000000E+008, +4.33652403266E-001, -1.35980157988E+002
+2.85268750000E+008, +4.35176810020E-001, -1.35738046238E+002
+2.85287500000E+008, +4.36748185695E-001, -1.35525505133E+002
+2.85306250000E+008, +4.38206354859E-001, -1.35308544985E+002
+2.85325000000E+008, +4.39764489202E-001, -1.35077431763E+002
+2.85343750000E+008, +4.41405596599E-001, -1.34843428030E+002
+2.85362500000E+008, +4.42985913545E-001, -1.34639928582E+002
+2.85381250000E+008, +4.44385415326E-001, -1.34422283821E+002
+2.85400000000E+008, +4.45939627133E-001, -1.34214610160E+002
+2.85418750000E+008, +4.47405527699E-001, -1.34007976992E+002
+2.85437500000E+008, +4.48963940819E-001, -1.33818831303E+002
+2.85456250000E+008, +4.50352002095E-001, -1.33623047850E+002
+2.85475000000E+008, +4.51906571142E-001, -1.33433823898E+002
+2.85493750000E+008, +4.53445263655E-001, -1.33242022804E+002
+2.85512500000E+008, +4.54810227906E-001, -1.33050326649E+002
+2.85531250000E+008, +4.56295853623E-001, -1.32866585478E+002
+2.85550000000E+008, +4.57792429904E-001, -1.32694202231E+002
+2.85568750000E+008, +4.59219407407E-001, -1.32519471604E+002
+2.85587500000E+008, +4.60574534517E-001, -1.32369936340E+002
+2.85606250000E+008, +4.61986438644E-001, -1.32202206442E+002
+2.85625000000E+008, +4.63324645500E-001, -1.32036893441E+002
+2.85643750000E+008, +4.64716686703E-001, -1.31889569467E+002
+2.85662500000E+008, +4.65999866276E-001, -1.31706033332E+002
+2.85681250000E+008, +4.67328386050E-001, -1.31554337584E+002
+2.85700000000E+008, +4.68632962125E-001, -1.31409767724E+002
+2.85718750000E+008, +4.69869373728E-001, -1.31263004633E+002
+2.85737500000E+008, +4.70956318900E-001, -1.31129937068E+002
+2.85756250000E+008, +4.72138804102E-001, -1.30989853654E+002
+2.85775000000E+008, +4.73346461184E-001, -1.30846031057E+002
+2.85793750000E+008, +4.74541746759E-001, -1.30708283406E+002
+2.85812500000E+008, +4.75688779296E-001, -1.30582364379E+002
+2.85831250000E+008, +4.76664130089E-001, -1.30445944962E+002
+2.85850000000E+008, +4.77839060004E-001, -1.30321945634E+002
+2.85868750000E+008, +4.78807270007E-001, -1.30205083231E+002
+2.85887500000E+008, +4.79873195383E-001, -1.30091533078E+002
+2.85906250000E+008, +4.80859425116E-001, -1.29978341641E+002
+2.85925000000E+008, +4.81652428590E-001, -1.29868631693E+002
+2.85943750000E+008, +4.82619399608E-001, -1.29745861564E+002
+2.85962500000E+008, +4.83514730374E-001, -1.29631323941E+002
+2.85981250000E+008, +4.84375088323E-001, -1.29534225887E+002
+2.86000000000E+008, +4.85259275984E-001, -1.29437740264E+002
+2.86018750000E+008, +4.85920806952E-001, -1.29326914091E+002
+2.86037500000E+008, +4.86727351824E-001, -1.29261687895E+002
+2.86056250000E+008, +4.87431774053E-001, -1.29162303261E+002
+2.86075000000E+008, +4.88040202223E-001, -1.29075845864E+002
+2.86093750000E+008, +4.88647623366E-001, -1.28987466963E+002
+2.86112500000E+008, +4.89221008867E-001, -1.28894180393E+002
+2.86131250000E+008, +4.89717773538E-001, -1.28801653304E+002
+2.86150000000E+008, +4.90255947392E-001, -1.28731585031E+002
+2.86168750000E+008, +4.90706740935E-001, -1.28658624751E+002
+2.86187500000E+008, +4.91043227408E-001, -1.28594938969E+002
+2.86206250000E+008, +4.91335574933E-001, -1.28534279891E+002
+2.86225000000E+008, +4.91693240526E-001, -1.28461186044E+002
+2.86243750000E+008, +4.91976497634E-001, -1.28388222717E+002
+2.86262500000E+008, +4.92243392706E-001, -1.28333321219E+002
+2.86281250000E+008, +4.92419204465E-001, -1.28282023173E+002
+2.86300000000E+008, +4.92528941652E-001, -1.28220838292E+002
+2.86318750000E+008, +4.92580568406E-001, -1.28180010125E+002
+2.86337500000E+008, +4.92653186628E-001, -1.28142622450E+002
+2.86356250000E+008, +4.92744719536E-001, -1.28105130941E+002
+2.86375000000E+008, +4.92622366165E-001, -1.28067561022E+002
+2.86393750000E+008, +4.92456702678E-001, -1.28020081087E+002
+2.86412500000E+008, +4.92199424582E-001, -1.27988246999E+002
+2.86431250000E+008, +4.92106028554E-001, -1.27952159293E+002
+2.86450000000E+008, +4.91910773829E-001, -1.27926358088E+002
+2.86468750000E+008, +4.91629516590E-001, -1.27913716244E+002
+2.86487500000E+008, +4.91236083168E-001, -1.27909769676E+002
+2.86506250000E+008, +4.90926478303E-001, -1.27879090123E+002
+2.86525000000E+008, +4.90358576324E-001, -1.27874053377E+002
+2.86543750000E+008, +4.89769012135E-001, -1.27858518423E+002
+2.86562500000E+008, +4.89204417430E-001, -1.27859876002E+002
+2.86581250000E+008, +4.88562957793E-001, -1.27847013404E+002
+2.86600000000E+008, +4.87917767784E-001, -1.27859001999E+002
+2.86618750000E+008, +4.87142200091E-001, -1.27866665658E+002
+2.86637500000E+008, +4.86387412958E-001, -1.27899850526E+002
+2.86656250000E+008, +4.85608404398E-001, -1.27917456479E+002
+2.86675000000E+008, +4.84752304566E-001, -1.27941220774E+002
+2.86693750000E+008, +4.83793859769E-001, -1.27968335742E+002
+2.86712500000E+008, +4.82788603358E-001, -1.27992872232E+002
+2.86731250000E+008, +4.81644454822E-001, -1.28037616927E+002
+2.86750000000E+008, +4.80574328051E-001, -1.28066746354E+002
+2.86768750000E+008, +4.79420612938E-001, -1.28119329034E+002
+2.86787500000E+008, +4.78208011546E-001, -1.28186510740E+002
+2.86806250000E+008, +4.76954184189E-001, -1.28258367178E+002
+2.86825000000E+008, +4.75543072255E-001, -1.28327463102E+002
+2.86843750000E+008, +4.74254168311E-001, -1.28399781502E+002
+2.86862500000E+008, +4.72788639934E-001, -1.28472287421E+002
+2.86881250000E+008, +4.71289142544E-001, -1.28553960534E+002
+2.86900000000E+008, +4.69798718734E-001, -1.28651687404E+002
+2.86918750000E+008, +4.68197206831E-001, -1.28760951693E+002
+2.86937500000E+008, +4.66599779966E-001, -1.28866363448E+002
+2.86956250000E+008, +4.64903988226E-001, -1.28998977346E+002
+2.86975000000E+008, +4.63205077050E-001, -1.29122534027E+002
+2.86993750000E+008, +4.61358254258E-001, -1.29262739357E+002
+2.87012500000E+008, +4.59508504978E-001, -1.29393816694E+002
+2.87031250000E+008, +4.57586612860E-001, -1.29544619563E+002
+2.87050000000E+008, +4.55799136558E-001, -1.29698805267E+002
+2.87068750000E+008, +4.53809976933E-001, -1.29864987271E+002
+2.87087500000E+008, +4.51765579894E-001, -1.30037375775E+002
+2.87106250000E+008, +4.49801847810E-001, -1.30251084936E+002
+2.87125000000E+008, +4.47668888083E-001, -1.30438453509E+002
+2.87143750000E+008, +4.45542629140E-001, -1.30639616465E+002
+2.87162500000E+008, +4.43306245797E-001, -1.30856557905E+002
+2.87181250000E+008, +4.41166325448E-001, -1.31087942567E+002
+2.87200000000E+008, +4.38888300737E-001, -1.31326278881E+002
+2.87218750000E+008, +4.36687824801E-001, -1.31575221577E+002
+2.87237500000E+008, +4.34386808759E-001, -1.31842403362E+002
+2.87256250000E+008, +4.32230721329E-001, -1.32140492895E+002
+2.87275000000E+008, +4.29715432398E-001, -1.32411623246E+002
+2.87293750000E+008, +4.27361893106E-001, -1.32715132667E+002
+2.87312500000E+008, +4.24996863760E-001, -1.33025220922E+002
+2.87331250000E+008, +4.22665401033E-001, -1.33356557147E+002
+2.87350000000E+008, +4.20241841277E-001, -1.33706980449E+002
+2.87368750000E+008, +4.17864092948E-001, -1.34079872048E+002
+2.87387500000E+008, +4.15472054272E-001, -1.34456313948E+002
+2.87406250000E+008, +4.13095726419E-001, -1.34852598386E+002
+2.87425000000E+008, +4.10608030599E-001, -1.35278750837E+002
+2.87443750000E+008, +4.08212509421E-001, -1.35678214788E+002
+2.87462500000E+008, +4.05814284882E-001, -1.36125883823E+002
+2.87481250000E+008, +4.03337980930E-001, -1.36592433574E+002
+2.87500000000E+008, +4.00973479345E-001, -1.37034035833E+002
+2.87518750000E+008, +3.98620728270E-001, -1.37535936549E+002
+2.87537500000E+008, +3.96368665031E-001, -1.38058767387E+002
+2.87556250000E+008, +3.94062621635E-001, -1.38586478986E+002
+2.87575000000E+008, +3.91671558178E-001, -1.39133860948E+002
+2.87593750000E+008, +3.89440857215E-001, -1.39694116103E+002
+2.87612500000E+008, +3.87285033241E-001, -1.40275658764E+002
+2.87631250000E+008, +3.85004889491E-001, -1.40860465504E+002
+2.87650000000E+008, +3.82888299507E-001, -1.41502462399E+002
+2.87668750000E+008, +3.80905536554E-001, -1.42119921764E+002
+2.87687500000E+008, +3.78984220363E-001, -1.42802478965E+002
+2.87706250000E+008, +3.77050285612E-001, -1.43480783679E+002
+2.87725000000E+008, +3.75216210443E-001, -1.44149444670E+002
+2.87743750000E+008, +3.73304002306E-001, -1.44870221106E+002
+2.87762500000E+008, +3.71617153378E-001, -1.45602528719E+002
+2.87781250000E+008, +3.70065244295E-001, -1.46345051725E+002
+2.87800000000E+008, +3.68453248945E-001, -1.47111515440E+002
+2.87818750000E+008, +3.67064440754E-001, -1.47890278489E+002
+2.87837500000E+008, +3.65766509301E-001, -1.48681341895E+002
+2.87856250000E+008, +3.64503159210E-001, -1.49540650606E+002
+2.87875000000E+008, +3.63486854672E-001, -1.50345149849E+002
+2.87893750000E+008, +3.62436905955E-001, -1.51197993470E+002
+2.87912500000E+008, +3.61627447262E-001, -1.52050352246E+002
+2.87931250000E+008, +3.60688182155E-001, -1.52906777319E+002
+2.87950000000E+008, +3.60154147089E-001, -1.53793974854E+002
+2.87968750000E+008, +3.59521745959E-001, -1.54701238106E+002
+2.87987500000E+008, +3.59315975797E-001, -1.55607941842E+002
+2.88006250000E+008, +3.59206410720E-001, -1.56501043412E+002
+2.88025000000E+008, +3.59106683418E-001, -1.57434949748E+002
+2.88043750000E+008, +3.59030121549E-001, -1.58358683981E+002
+2.88062500000E+008, +3.59200001138E-001, -1.59313118249E+002
+2.88081250000E+008, +3.59514284822E-001, -1.60245409358E+002
+2.88100000000E+008, +3.59978248202E-001, -1.61181036664E+002
+2.88118750000E+008, +3.60634465027E-001, -1.62123869923E+002
+2.88137500000E+008, +3.61454038890E-001, -1.63069643149E+002
+2.88156250000E+008, +3.62535207090E-001, -1.64021966700E+002
+2.88175000000E+008, +3.63596553940E-001, -1.64961493825E+002
+2.88193750000E+008, +3.64827729270E-001, -1.65900870704E+002
+2.88212500000E+008, +3.66161339539E-001, -1.66834389912E+002
+2.88231250000E+008, +3.67702949669E-001, -1.67758554079E+002
+2.88250000000E+008, +3.69327274597E-001, -1.68668308560E+002
+2.88268750000E+008, +3.71255831115E-001, -1.69581467848E+002
+2.88287500000E+008, +3.73192208511E-001, -1.70486617436E+002
+2.88306250000E+008, +3.75366288097E-001, -1.71350734810E+002
+2.88325000000E+008, +3.77794035878E-001, -1.72253878903E+002
+2.88343750000E+008, +3.79923513081E-001, -1.73127282201E+002
+2.88362500000E+008, +3.82537980642E-001, -1.73972913358E+002
+2.88381250000E+008, +3.85094246484E-001, -1.74840190160E+002
+2.88400000000E+008, +3.87913791536E-001, -1.75666758328E+002
+2.88418750000E+008, +3.90737885092E-001, -1.76479357518E+002
+2.88437500000E+008, +3.93830453860E-001, -1.77278170468E+002
+2.88456250000E+008, +3.97101752393E-001, -1.78063624549E+002
+2.88475000000E+008, +4.00398274697E-001, -1.78836629611E+002
+2.88493750000E+008, +4.03671766144E-001, -1.79588482595E+002
+2.88512500000E+008, +4.06960737944E-001, +1.79660951497E+002
+2.88531250000E+008, +4.10524719071E-001, +1.78938519097E+002
+2.88550000000E+008, +4.14223498937E-001, +1.78238028385E+002
+2.88568750000E+008, +4.17864205092E-001, +1.77543911586E+002
+2.88587500000E+008, +4.21748271199E-001, +1.76876906892E+002
+2.88606250000E+008, +4.25665355831E-001, +1.76229288300E+002
+2.88625000000E+008, +4.29721374277E-001, +1.75588950449E+002
+2.88643750000E+008, +4.33692909462E-001, +1.74966460207E+002
+2.88662500000E+008, +4.37662572738E-001, +1.74362089787E+002
+2.88681250000E+008, +4.41775556870E-001, +1.73767802270E+002
+2.88700000000E+008, +4.45989183458E-001, +1.73209326006E+002
+2.88718750000E+008, +4.50347758068E-001, +1.72644968249E+002
+2.88737500000E+008, +4.54808205491E-001, +1.72095651294E+002
+2.88756250000E+008, +4.59174161425E-001, +1.71585552259E+002
+2.88775000000E+008, +4.63376866375E-001, +1.71078127664E+002
+2.88793750000E+008, +4.67813982052E-001, +1.70575783949E+002
+2.88812500000E+008, +4.72304899611E-001, +1.70081504713E+002
+2.88831250000E+008, +4.76843099563E-001, +1.69620887252E+002
+2.88850000000E+008, +4.81316058906E-001, +1.69183301897E+002
+2.88868750000E+008, +4.85743815291E-001, +1.68727557902E+002
+2.88887500000E+008, +4.90491890366E-001, +1.68301377378E+002
+2.88906250000E+008, +4.94946413093E-001, +1.67890414167E+002
+2.88925000000E+008, +4.99615877177E-001, +1.67485498717E+002
+2.88943750000E+008, +5.04077214416E-001, +1.67095385022E+002
+2.88962500000E+008, +5.08671882726E-001, +1.66712244063E+002
+2.88981250000E+008, +5.13193183058E-001, +1.66346389408E+002
+2.89000000000E+008, +5.17779523347E-001, +1.65986226207E+002
