"# Channel 1"
"# Trace 2"
Frequency, Formatted Data, Formatted Data
+2.83000000000E+008, +2.52804780043E-001, +6.53273910488E+001
+2.83018750000E+008, +2.51211982375E-001, +6.46520193011E+001
+2.83037500000E+008, +2.49602342053E-001, +6.39599124393E+001
+2.83056250000E+008, +2.47942767178E-001, +6.32684202378E+001
+2.83075000000E+008, +2.46404887099E-001, +6.25733714614E+001
+2.83093750000E+008, +2.44624252549E-001, +6.18727694486E+001
+2.83112500000E+008, +2.42966607309E-001, +6.11362435908E+001
+2.83131250000E+008, +2.41288513896E-001, +6.03892597976E+001
+2.83150000000E+008, +2.39567378020E-001, +5.96283839825E+001
+2.83168750000E+008, +2.37853196943E-001, +5.88788087332E+001
+2.83187500000E+008, +2.36294920369E-001, +5.80865592018E+001
+2.83206250000E+008, +2.34494955309E-001, +5.72880001961E+001
+2.83225000000E+008, +2.32720425647E-001, +5.64951446259E+001
+2.83243750000E+008, +2.30991896682E-001, +5.56853880108E+001
+2.83262500000E+008, +2.29251050692E-001, +5.48561454835E+001
+2.83281250000E+008, +2.27459613256E-001, +5.40128154294E+001
+2.83300000000E+008, +2.25764016837E-001, +5.31471125263E+001
+2.83318750000E+008, +2.23982437337E-001, +5.22981636507E+001
+2.83337500000E+008, +2.22221218005E-001, +5.14109353043E+001
+2.83356250000E+008, +2.20442350222E-001, +5.05070166368E+001
+2.83375000000E+008, +2.18656025587E-001, +4.95944201682E+001
+2.83393750000E+008, +2.16890861595E-001, +4.86636141233E+001
+2.83412500000E+008, +2.15233571154E-001, +4.77217341981E+001
+2.83431250000E+008, +2.13444886845E-001, +4.67672620298E+001
+2.83450000000E+008, +2.11600017150E-001, +4.57581108083E+001
+2.83468750000E+008, +2.09909402420E-001, +4.48004316365E+001
+2.83487500000E+008, +2.08171557929E-001, +4.37695456265E+001
+2.83506250000E+008, +2.06376778058E-001, +4.27554841981E+001
+2.83525000000E+008, +2.04681802488E-001, +4.17108400053E+001
+2.83543750000E+008, +2.03013656873E-001, +4.06426008946E+001
+2.83562500000E+008, +2.01365569420E-001, +3.95646714559E+001
+2.83581250000E+008, +1.99597917290E-001, +3.84742555081E+001
+2.83600000000E+008, +1.98003027653E-001, +3.73686833108E+001
+2.83618750000E+008, +1.96312808934E-001, +3.62481116375E+001
+2.83637500000E+008, +1.94653584810E-001, +3.51064157208E+001
+2.83656250000E+008, +1.93067530390E-001, +3.39234247673E+001
+2.83675000000E+008, +1.91466636152E-001, +3.27576587268E+001
+2.83693750000E+008, +1.89929894429E-001, +3.15431684218E+001
+2.83712500000E+008, +1.88505158913E-001, +3.03400247170E+001
+2.83731250000E+008, +1.86966190616E-001, +2.91000074259E+001
+2.83750000000E+008, +1.85509191372E-001, +2.78545450768E+001
+2.83768750000E+008, +1.83980293947E-001, +2.65612670675E+001
+2.83787500000E+008, +1.82609391779E-001, +2.52720001749E+001
+2.83806250000E+008, +1.81248501799E-001, +2.39690204022E+001
+2.83825000000E+008, +1.79934654535E-001, +2.26374571394E+001
+2.83843750000E+008, +1.78712595025E-001, +2.12884960680E+001
+2.83862500000E+008, +1.77378820534E-001, +1.99196775760E+001
+2.83881250000E+008, +1.76110625366E-001, +1.85242089920E+001
+2.83900000000E+008, +1.74974604081E-001, +1.71318911670E+001
+2.83918750000E+008, +1.73882735637E-001, +1.57289309906E+001
+2.83937500000E+008, +1.72772892382E-001, +1.42793609314E+001
+2.83956250000E+008, +1.71742189926E-001, +1.28647064970E+001
+2.83975000000E+008, +1.70797626039E-001, +1.13793931073E+001
+2.83993750000E+008, +1.69756164491E-001, +9.87497078676E+000
+2.84012500000E+008, +1.68879505635E-001, +8.37689369943E+000
+2.84031250000E+008, +1.68105891385E-001, +6.89560238898E+000
+2.84050000000E+008, +1.67396103846E-001, +5.34798409542E+000
+2.84068750000E+008, +1.66610611063E-001, +3.83059458667E+000
+2.84087500000E+008, +1.65958283772E-001, +2.25844599055E+000
+2.84106250000E+008, +1.65347157870E-001, +7.20737412001E-001
+2.84125000000E+008, +1.64882523047E-001, -8.59759267770E-001
+2.84143750000E+008, +1.64360380696E-001, -2.41690253715E+000
+2.84162500000E+008, +1.64034305191E-001, -3.99716376749E+000
+2.84181250000E+008, +1.63622260175E-001, -5.60257094953E+000
+2.84200000000E+008, +1.63324188298E-001, -7.20599892012E+000
+2.84218750000E+008, +1.63094986262E-001, -8.86814273661E+000
+2.84237500000E+008, +1.62922767178E-001, -1.04555165185E+001
+2.84256250000E+008, +1.62827240535E-001, -1.20175711128E+001
+2.84275000000E+008, +1.62777921205E-001, -1.36659392010E+001
+2.84293750000E+008, +1.62849180257E-001, -1.52763220676E+001
+2.84312500000E+008, +1.62913259634E-001, -1.68892630234E+001
+2.84331250000E+008, +1.63044760101E-001, -1.85268652864E+001
+2.84350000000E+008, +1.63183786032E-001, -2.00788376827E+001
+2.84368750000E+008, +1.63549966542E-001, -2.17154420614E+001
+2.84387500000E+008, +1.63856492760E-001, -2.33329204445E+001
+2.84406250000E+008, +1.64379727000E-001, -2.49201645543E+001
+2.84425000000E+008, +1.64749847014E-001, -2.65428113574E+001
+2.84443750000E+008, +1.65288270338E-001, -2.81244304618E+001
+2.84462500000E+008, +1.65794320679E-001, -2.96840670742E+001
+2.84481250000E+008, +1.66496158398E-001, -3.12357049211E+001
+2.84500000000E+008, +1.67218592227E-001, -3.27878972594E+001
+2.84518750000E+008, +1.67943574891E-001, -3.43597362636E+001
+2.84537500000E+008, +1.68764303295E-001, -3.58837606366E+001
+2.84556250000E+008, +1.69666208338E-001, -3.74184552637E+001
+2.84575000000E+008, +1.70508750893E-001, -3.89479735082E+001
+2.84593750000E+008, +1.71522416955E-001, -4.04062654615E+001
+2.84612500000E+008, +1.72501099903E-001, -4.18848638901E+001
+2.84631250000E+008, +1.73582296125E-001, -4.34029993967E+001
+2.84650000000E+008, +1.74679365441E-001, -4.48116514270E+001
+2.84668750000E+008, +1.75870666806E-001, -4.62732058949E+001
+2.84687500000E+008, +1.77059047472E-001, -4.77000905272E+001
+2.84706250000E+008, +1.78279242851E-001, -4.91140119128E+001
+2.84725000000E+008, +1.79552451041E-001, -5.05083942290E+001
+2.84743750000E+008, +1.80908948214E-001, -5.18801267667E+001
+2.84762500000E+008, +1.82219380670E-001, -5.32406205968E+001
+2.84781250000E+008, +1.83635864021E-001, -5.46129517714E+001
+2.84800000000E+008, +1.85171677040E-001, -5.59129791892E+001
+2.84818750000E+008, +1.86546991957E-001, -5.72277827956E+001
+2.84837500000E+008, +1.88046251762E-001, -5.85487434040E+001
+2.84856250000E+008, +1.89547706777E-001, -5.98208974747E+001
+2.84875000000E+008, +1.91106405878E-001, -6.10836123151E+001
+2.84893750000E+008, +1.92614790326E-001, -6.23168813483E+001
+2.84912500000E+008, +1.94218242067E-001, -6.35819027371E+001
+2.84931250000E+008, +1.95873169079E-001, -6.48025980449E+001
+2.84950000000E+008, +1.97499230941E-001, -6.60061286189E+001
+2.84968750000E+008, +1.99264161255E-001, -6.71876413636E+001
+2.84987500000E+008, +2.00877745522E-001, -6.83808123768E+001
+2.85006250000E+008, +2.02614731561E-001, -6.95252939473E+001
+2.85025000000E+008, +2.04282748626E-001, -7.06704169742E+001
+2.85043750000E+008, +2.06047247551E-001, -7.17918692134E+001
+2.85062500000E+008, +2.07776574324E-001, -7.29128536327E+001
+2.85081250000E+008, +2.09551846840E-001, -7.40334940770E+001
+2.85100000000E+008, +2.11298003946E-001, -7.51010372106E+001
+2.85118750000E+008, +2.13073111387E-001, -7.61913474009E+001
+2.85137500000E+008, +2.14769583765E-001, -7.72648607539E+001
+2.85156250000E+008, +2.16706986502E-001, -7.83224871707E+001
+2.85175000000E+008, +2.18499822033E-001, -7.93831305415E+001
+2.85193750000E+008, +2.20293119814E-001, -8.04015764446E+001
+2.85212500000E+008, +2.22238072056E-001, -8.14109171608E+001
+2.85231250000E+008, +2.24006213605E-001, -8.24223706742E+001
+2.85250000000E+008, +2.25836477884E-001, -8.34233425907E+001
+2.85268750000E+008, +2.27737550760E-001, -8.43679238763E+001
+2.85287500000E+008, +2.29575372306E-001, -8.53574730455E+001
+2.85306250000E+008, +2.31423579544E-001, -8.63216807105E+001
+2.85325000000E+008, +2.33230690635E-001, -8.72713388674E+001
+2.85343750000E+008, +2.35088892948E-001, -8.82038075601E+001
+2.85362500000E+008, +2.36981212050E-001, -8.91494548922E+001
+2.85381250000E+008, +2.38756839342E-001, -9.00352730050E+001
+2.85400000000E+008, +2.40613934875E-001, -9.09764119879E+001
+2.85418750000E+008, +2.42485791214E-001, -9.18771248394E+001
+2.85437500000E+008, +2.44343528518E-001, -9.27866779714E+001
+2.85456250000E+008, +2.46171368858E-001, -9.36483067182E+001
+2.85475000000E+008, +2.48069238245E-001, -9.45387180360E+001
+2.85493750000E+008, +2.49899089770E-001, -9.53788214622E+001
+2.85512500000E+008, +2.51738946982E-001, -9.62526025436E+001
+2.85531250000E+008, +2.53627045657E-001, -9.70839540781E+001
+2.85550000000E+008, +2.55458978630E-001, -9.79271748685E+001
+2.85568750000E+008, +2.57360193143E-001, -9.87532570533E+001
+2.85587500000E+008, +2.59158542473E-001, -9.95735648571E+001
+2.85606250000E+008, +2.61009070150E-001, -1.00410555956E+002
+2.85625000000E+008, +2.62740106556E-001, -1.01210191828E+002
+2.85643750000E+008, +2.64671718420E-001, -1.02012734872E+002
+2.85662500000E+008, +2.66473231133E-001, -1.02789694549E+002
+2.85681250000E+008, +2.68294632170E-001, -1.03596853293E+002
+2.85700000000E+008, +2.70086393301E-001, -1.04392044638E+002
+2.85718750000E+008, +2.71859750434E-001, -1.05153147274E+002
+2.85737500000E+008, +2.73683458825E-001, -1.05923117783E+002
+2.85756250000E+008, +2.75477496057E-001, -1.06685631427E+002
+2.85775000000E+008, +2.77224844227E-001, -1.07436515367E+002
+2.85793750000E+008, +2.79101101525E-001, -1.08189512296E+002
+2.85812500000E+008, +2.80730583713E-001, -1.08927898946E+002
+2.85831250000E+008, +2.82498677391E-001, -1.09669915693E+002
+2.85850000000E+008, +2.84346274914E-001, -1.10400980912E+002
+2.85868750000E+008, +2.86159884321E-001, -1.11124639106E+002
+2.85887500000E+008, +2.87870052154E-001, -1.11862189806E+002
+2.85906250000E+008, +2.89597207634E-001, -1.12566704240E+002
+2.85925000000E+008, +2.91291589011E-001, -1.13251921395E+002
+2.85943750000E+008, +2.93067655606E-001, -1.13947941105E+002
+2.85962500000E+008, +2.94773504309E-001, -1.14678461651E+002
+2.85981250000E+008, +2.96553001442E-001, -1.15342110856E+002
+2.86000000000E+008, +2.98199697046E-001, -1.16069278891E+002
+2.86018750000E+008, +2.99934406740E-001, -1.16723296351E+002
+2.86037500000E+008, +3.01712519080E-001, -1.17413419190E+002
+2.86056250000E+008, +3.03480630268E-001, -1.18070198283E+002
+2.86075000000E+008, +3.05053918820E-001, -1.18762099245E+002
+2.86093750000E+008, +3.06780321645E-001, -1.19436779356E+002
+2.86112500000E+008, +3.08562619714E-001, -1.20080330106E+002
+2.86131250000E+008, +3.10138903926E-001, -1.20738164459E+002
+2.86150000000E+008, +3.11805473167E-001, -1.21396773404E+002
+2.86168750000E+008, +3.13492142349E-001, -1.22039933914E+002
+2.86187500000E+008, +3.15123252700E-001, -1.22670676788E+002
+2.86206250000E+008, +3.16797282620E-001, -1.23327816820E+002
+2.86225000000E+008, +3.18478549308E-001, -1.23960633399E+002
+2.86243750000E+008, +3.20170594697E-001, -1.24579417101E+002
+2.86262500000E+008, +3.21772032110E-001, -1.25214749809E+002
+2.86281250000E+008, +3.23391714246E-001, -1.25842369380E+002
+2.86300000000E+008, +3.25154335799E-001, -1.26462123362E+002
+2.86318750000E+008, +3.26757088728E-001, -1.27074458701E+002
+2.86337500000E+008, +3.28342624953E-001, -1.27673569165E+002
+2.86356250000E+008, +3.30109433345E-001, -1.28269557387E+002
+2.86375000000E+008, +3.31744125553E-001, -1.28880423272E+002
+2.86393750000E+008, +3.33366451016E-001, -1.29488376623E+002
+2.86412500000E+008, +3.35013910566E-001, -1.30061114360E+002
+2.86431250000E+008, +3.36605308380E-001, -1.30666239792E+002
+2.86450000000E+008, +3.38199343517E-001, -1.31244113737E+002
+2.86468750000E+008, +3.39831875431E-001, -1.31833045401E+002
+2.86487500000E+008, +3.41381118303E-001, -1.32398288849E+002
+2.86506250000E+008, +3.43050720560E-001, -1.32980887823E+002
+2.86525000000E+008, +3.44718156372E-001, -1.33548038132E+002
+2.86543750000E+008, +3.46306245172E-001, -1.34122629021E+002
+2.86562500000E+008, +3.47961602847E-001, -1.34680614943E+002
+2.86581250000E+008, +3.49494366561E-001, -1.35253417415E+002
+2.86600000000E+008, +3.51185601413E-001, -1.35809489478E+002
+2.86618750000E+008, +3.52804255792E-001, -1.36363076780E+002
+2.86637500000E+008, +3.54437632749E-001, -1.36916351323E+002
+2.86656250000E+008, +3.56026147535E-001, -1.37460842690E+002
+2.86675000000E+008, +3.57707247838E-001, -1.38004774356E+002
+2.86693750000E+008, +3.59261122497E-001, -1.38553186341E+002
+2.86712500000E+008, +3.60932418304E-001, -1.39085334264E+002
+2.86731250000E+008, +3.62544747278E-001, -1.39619209729E+002
+2.86750000000E+008, +3.64140111494E-001, -1.40147307875E+002
+2.86768750000E+008, +3.65794252595E-001, -1.40680135662E+002
+2.86787500000E+008, +3.67423960277E-001, -1.41223244390E+002
+2.86806250000E+008, +3.69088040506E-001, -1.41732411040E+002
+2.86825000000E+008, +3.70726958808E-001, -1.42246595707E+002
+2.86843750000E+008, +3.72273489300E-001, -1.42766141901E+002
+2.86862500000E+008, +3.74070609444E-001, -1.43295893196E+002
+2.86881250000E+008, +3.75589703184E-001, -1.43785669991E+002
+2.86900000000E+008, +3.77216174536E-001, -1.44300345627E+002
+2.86918750000E+008, +3.78969844181E-001, -1.44808151510E+002
+2.86937500000E+008, +3.80584320877E-001, -1.45302064770E+002
+2.86956250000E+008, +3.82199626052E-001, -1.45799816928E+002
+2.86975000000E+008, +3.83924236344E-001, -1.46292945280E+002
+2.86993750000E+008, +3.85540910726E-001, -1.46779853909E+002
+2.87012500000E+008, +3.87300684376E-001, -1.47274598501E+002
+2.87031250000E+008, +3.88952561154E-001, -1.47753048381E+002
+2.87050000000E+008, +3.90564857166E-001, -1.48259888165E+002
+2.87068750000E+008, +3.92288962868E-001, -1.48728817671E+002
+2.87087500000E+008, +3.93972652853E-001, -1.49203099663E+002
+2.87106250000E+008, +3.95625687086E-001, -1.49687819496E+002
+2.87125000000E+008, +3.97300745659E-001, -1.50151538631E+002
+2.87143750000E+008, +3.99067517044E-001, -1.50613984100E+002
+2.87162500000E+008, +4.00644446073E-001, -1.51090373268E+002
+2.87181250000E+008, +4.02416638053E-001, -1.51553650374E+002
+2.87200000000E+008, +4.04130437079E-001, -1.52012935917E+002
+2.87218750000E+008, +4.05816263035E-001, -1.52473175123E+002
+2.87237500000E+008, +4.07542443296E-001, -1.52929242599E+002
+2.87256250000E+008, +4.09312581586E-001, -1.53385118152E+002
+2.87275000000E+008, +4.11004577099E-001, -1.53831999847E+002
+2.87293750000E+008, +4.12791618680E-001, -1.54284381309E+002
+2.87312500000E+008, +4.14494446215E-001, -1.54735919909E+002
+2.87331250000E+008, +4.16250302755E-001, -1.55174222576E+002
+2.87350000000E+008, +4.17976518578E-001, -1.55612846258E+002
+2.87368750000E+008, +4.19729527658E-001, -1.56042930974E+002
+2.87387500000E+008, +4.21493244216E-001, -1.56478702686E+002
+2.87406250000E+008, +4.23254600366E-001, -1.56911183032E+002
+2.87425000000E+008, +4.24991847459E-001, -1.57343069546E+002
+2.87443750000E+008, +4.26805959082E-001, -1.57766615640E+002
+2.87462500000E+008, +4.28492204508E-001, -1.58194698160E+002
+2.87481250000E+008, +4.30293602910E-001, -1.58610693998E+002
+2.87500000000E+008, +4.32108970725E-001, -1.59036768373E+002
+2.87518750000E+008, +4.33864718437E-001, -1.59455718469E+002
+2.87537500000E+008, +4.35664077106E-001, -1.59880575454E+002
+2.87556250000E+008, +4.37487199849E-001, -1.60297837195E+002
+2.87575000000E+008, +4.39316774461E-001, -1.60700209533E+002
+2.87593750000E+008, +4.41150327319E-001, -1.61115934237E+002
+2.87612500000E+008, +4.42914147573E-001, -1.61524279738E+002
+2.87631250000E+008, +4.44749152507E-001, -1.61931534122E+002
+2.87650000000E+008, +4.46559673964E-001, -1.62338762413E+002
+2.87668750000E+008, +4.48449230764E-001, -1.62726414590E+002
+2.87687500000E+008, +4.50271554602E-001, -1.63130056009E+002
+2.87706250000E+008, +4.52136755052E-001, -1.63517055678E+002
+2.87725000000E+008, +4.53960150057E-001, -1.63914968729E+002
+2.87743750000E+008, +4.55852070458E-001, -1.64305267471E+002
+2.87762500000E+008, +4.57652678799E-001, -1.64689409236E+002
+2.87781250000E+008, +4.59494103061E-001, -1.65090406411E+002
+2.87800000000E+008, +4.61327474900E-001, -1.65476322739E+002
+2.87818750000E+008, +4.63245163063E-001, -1.65858570137E+002
+2.87837500000E+008, +4.65019073238E-001, -1.66233877624E+002
+2.87856250000E+008, +4.67002227769E-001, -1.66631578564E+002
+2.87875000000E+008, +4.68771145969E-001, -1.67001349704E+002
+2.87893750000E+008, +4.70667114514E-001, -1.67393589576E+002
+2.87912500000E+008, +4.72482657989E-001, -1.67759838069E+002
+2.87931250000E+008, +4.74406975380E-001, -1.68129687202E+002
+2.87950000000E+008, +4.76310948868E-001, -1.68493676981E+002
+2.87968750000E+008, +4.78089829046E-001, -1.68860454365E+002
+2.87987500000E+008, +4.80020752569E-001, -1.69237022369E+002
+2.88006250000E+008, +4.81999047223E-001, -1.69597915310E+002
+2.88025000000E+008, +4.83777863174E-001, -1.69968970856E+002
+2.88043750000E+008, +4.85708778360E-001, -1.70329151982E+002
+2.88062500000E+008, +4.87520976186E-001, -1.70691600541E+002
+2.88081250000E+008, +4.89416645775E-001, -1.71046123023E+002
+2.88100000000E+008, +4.91364384697E-001, -1.71398528322E+002
+2.88118750000E+008, +4.93255520601E-001, -1.71761075828E+002
+2.88137500000E+008, +4.95165780520E-001, -1.72108424828E+002
+2.88156250000E+008, +4.97052996838E-001, -1.72461394369E+002
+2.88175000000E+008, +4.98930986541E-001, -1.72805941381E+002
+2.88193750000E+008, +5.00918353867E-001, -1.73167111883E+002
+2.88212500000E+008, +5.02752858921E-001, -1.73510997427E+002
+2.88231250000E+008, +5.04562711670E-001, -1.73856134235E+002
+2.88250000000E+008, +5.06486309750E-001, -1.74209884391E+002
+2.88268750000E+008, +5.08319071791E-001, -1.74555367856E+002
+2.88287500000E+008, +5.10269118879E-001, -1.74893083580E+002
+2.88306250000E+008, +5.12201198644E-001, -1.75233212353E+002
+2.88325000000E+008, +5.14184487558E-001, -1.75564201077E+002
+2.88343750000E+008, +5.15850230554E-001, -1.75901736546E+002
+2.88362500000E+008, +5.17748850141E-001, -1.76249603312E+002
+2.88381250000E+008, +5.19609338425E-001, -1.76578689692E+002
+2.88400000000E+008, +5.21576221022E-001, -1.76924308016E+002
+2.88418750000E+008, +5.23452435943E-001, -1.77257610310E+002
+2.88437500000E+008, +5.25292758289E-001, -1.77583875556E+002
+2.88456250000E+008, +5.27261569064E-001, -1.77908091241E+002
+2.88475000000E+008, +5.29038204360E-001, -1.78245750195E+002
+2.88493750000E+008, +5.30910850873E-001, -1.78573584964E+002
+2.88512500000E+008, +5.32757172949E-001, -1.78897162986E+002
+2.88531250000E+008, +5.34634292561E-001, -1.79221087526E+002
+2.88550000000E+008, +5.36432692649E-001, -1.79545515483E+002
+2.88568750000E+008, +5.38250622778E-001, -1.79870649370E+002
+2.88587500000E+008, +5.40105420997E-001, +1.79808555547E+002
+2.88606250000E+008, +5.41961952151E-001, +1.79488803132E+002
+2.88625000000E+008, +5.43760703679E-001, +1.79164544981E+002
+2.88643750000E+008, +5.45517614448E-001, +1.78848912228E+002
+2.88662500000E+008, +5.47496135576E-001, +1.78528033370E+002
+2.88681250000E+008, +5.49210635576E-001, +1.78212604189E+002
+2.88700000000E+008, +5.51056546867E-001, +1.77897641088E+002
+2.88718750000E+008, +5.52832458729E-001, +1.77582690588E+002
+2.88737500000E+008, +5.54599502346E-001, +1.77264230553E+002
+2.88756250000E+008, +5.56317184888E-001, +1.76947736268E+002
+2.88775000000E+008, +5.58039957053E-001, +1.76633178366E+002
+2.88793750000E+008, +5.59868599262E-001, +1.76335764965E+002
+2.88812500000E+008, +5.61737861878E-001, +1.76022560557E+002
+2.88831250000E+008, +5.63319227754E-001, +1.75706256656E+002
+2.88850000000E+008, +5.65134882679E-001, +1.75400794828E+002
+2.88868750000E+008, +5.66836309642E-001, +1.75082958547E+002
+2.88887500000E+008, +5.68462954105E-001, +1.74789295286E+002
+2.88906250000E+008, +5.70297410837E-001, +1.74477586412E+002
+2.88925000000E+008, +5.71968016567E-001, +1.74172026505E+002
+2.88943750000E+008, +5.73700377182E-001, +1.73864814362E+002
+2.88962500000E+008, +5.75324727178E-001, +1.73566476346E+002
+2.88981250000E+008, +5.76895661009E-001, +1.73266353044E+002
+2.89000000000E+008, +5.78606396591E-001, +1.72950167012E+002
